 v-sweep      @n.xmn.nsg13_lv_nmos[gds] @n.xmp.nsg13_lv_pmos[gds] v-sweep     
 0.00000e+00  8.04675e-03  1.18967e-11  0.00000e+00 
 2.50000e-02  7.77407e-03  2.40967e-11  2.50000e-02 
 5.00000e-02  7.49317e-03  5.08176e-11  5.00000e-02 
 7.50000e-02  7.20416e-03  1.09789e-10  7.50000e-02 
 1.00000e-01  6.90723e-03  2.40180e-10  1.00000e-01 
 1.25000e-01  6.60266e-03  5.28486e-10  1.25000e-01 
 1.50000e-01  6.29081e-03  1.16584e-09  1.50000e-01 
 1.75000e-01  5.97214e-03  2.57471e-09  1.75000e-01 
 2.00000e-01  5.64724e-03  5.68893e-09  2.00000e-01 
 2.25000e-01  5.31683e-03  1.25724e-08  2.25000e-01 
 2.50000e-01  4.98176e-03  2.77857e-08  2.50000e-01 
 2.75000e-01  4.64305e-03  6.14015e-08  2.75000e-01 
 3.00000e-01  4.30186e-03  1.35646e-07  3.00000e-01 
 3.25000e-01  3.95955e-03  2.99454e-07  3.25000e-01 
 3.50000e-01  3.61766e-03  6.60059e-07  3.50000e-01 
 3.75000e-01  3.27792e-03  1.45001e-06  3.75000e-01 
 4.00000e-01  2.94223e-03  3.16235e-06  4.00000e-01 
 4.25000e-01  2.61271e-03  6.79369e-06  4.25000e-01 
 4.50000e-01  2.29165e-03  1.41732e-05  4.50000e-01 
 4.75000e-01  1.98148e-03  2.81056e-05  4.75000e-01 
 5.00000e-01  1.68482e-03  5.17698e-05  5.00000e-01 
 5.25000e-01  1.40438e-03  8.73902e-05  5.25000e-01 
 5.50000e-01  1.14298e-03  1.35426e-04  5.50000e-01 
 5.75000e-01  9.03510e-04  1.94964e-04  5.75000e-01 
 6.00000e-01  6.88899e-04  2.64510e-04  6.00000e-01 
 6.25000e-01  5.02049e-04  3.42483e-04  6.25000e-01 
 6.50000e-01  3.45702e-04  4.27396e-04  6.50000e-01 
 6.75000e-01  2.22007e-04  5.17903e-04  6.75000e-01 
 7.00000e-01  1.31527e-04  6.12795e-04  7.00000e-01 
 7.25000e-01  7.17458e-05  7.10992e-04  7.25000e-01 
 7.50000e-01  3.64613e-05  8.11540e-04  7.50000e-01 
 7.75000e-01  1.76317e-05  9.13601e-04  7.75000e-01 
 8.00000e-01  8.28002e-06  1.01645e-03  8.00000e-01 
 8.25000e-01  3.82920e-06  1.11945e-03  8.25000e-01 
 8.50000e-01  1.75764e-06  1.22209e-03  8.50000e-01 
 8.75000e-01  8.03936e-07  1.32392e-03  8.75000e-01 
 9.00000e-01  3.67116e-07  1.42457e-03  9.00000e-01 
 9.25000e-01  1.67517e-07  1.52376e-03  9.25000e-01 
 9.50000e-01  7.64127e-08  1.62126e-03  9.50000e-01 
 9.75000e-01  3.48501e-08  1.71688e-03  9.75000e-01 
 1.00000e+00  1.58932e-08  1.81050e-03  1.00000e+00 
 1.02500e+00  7.24783e-09  1.90203e-03  1.02500e+00 
 1.05000e+00  3.30521e-09  1.99141e-03  1.05000e+00 
 1.07500e+00  1.50728e-09  2.07860e-03  1.07500e+00 
 1.10000e+00  6.87379e-10  2.16360e-03  1.10000e+00 
 1.12500e+00  3.13487e-10  2.24642e-03  1.12500e+00 
 1.15000e+00  1.42983e-10  2.32708e-03  1.15000e+00 
 1.17500e+00  6.52265e-11  2.40561e-03  1.17500e+00 
 1.20000e+00  2.97637e-11  2.48208e-03  1.20000e+00 
